CITIFILE A.01.01
#Momentum: B.07.00 (*) 2008.200 Nov  3 2007 
#Momentum Date and Time: Fri Dec 18 23:27:15 2009

NAME Momentum.SP

#  mode: MW    project: C:\Windows\Temp\8830204\proj    reference: S_50

CONSTANT NBR_OF_PORTS 2

CONSTANT NORMALIZATION 1

VAR freq MAG 11

DATA S[1,1] RI
DATA S[1,2] RI
DATA S[2,1] RI
DATA S[2,2] RI
DATA S_50[1,1] RI
DATA S_50[1,2] RI
DATA S_50[2,1] RI
DATA S_50[2,2] RI
DATA S_Z0[1,1] RI
DATA S_Z0[1,2] RI
DATA S_Z0[2,1] RI
DATA S_Z0[2,2] RI
DATA Z0[1] RI
DATA Z0[2] RI
DATA PORTZ[1] RI
DATA PORTZ[2] RI

VAR_LIST_BEGIN
	 2200000000
	 2300000000
	 2350000000
	 2400000000
	 2466666667
	 2533333333
	 2600000000
	 2650000000
	 2683333333
	 2700000000
	 2800000000
VAR_LIST_END

BEGIN
	-0.00242792145,	 0.910756032
	 0.538939869,	 0.624448204
	 0.674513144,	 0.17413532
	 0.299271193,	-0.1969066
	 0.154840757,	-0.0492739219
	 0.0457648001,	-0.0968542031
	 0.113071748,	-0.0610064954
	 0.107924963,	-0.194070959
	 0.0813501321,	-0.177828625
	 0.146767226,	-0.17273387
	-0.172254418,	-0.758128128
END
BEGIN
	-0.0193556053,	 0.00456575026
	-0.0379663652,	 0.0687009706
	 0.0455570902,	 0.18549125
	 0.427904921,	 0.0543518299
	-0.0599259221,	-0.589044894
	-0.61674519,	 0.00992903599
	-0.060388706,	 0.593865544
	 0.469734239,	 0.285672239
	 0.480983349,	-0.145173784
	 0.328959855,	-0.314600607
	-0.0815079346,	-0.0251625966
END
BEGIN
	-0.0193556053,	 0.00456575026
	-0.0379663652,	 0.0687009706
	 0.0455570902,	 0.18549125
	 0.427904921,	 0.0543518299
	-0.0599259221,	-0.589044894
	-0.61674519,	 0.00992903599
	-0.060388706,	 0.593865544
	 0.469734239,	 0.285672239
	 0.480983349,	-0.145173784
	 0.328959855,	-0.314600607
	-0.0815079346,	-0.0251625966
END
BEGIN
	-0.00472451949,	 0.910382176
	 0.53942984,	 0.621688072
	 0.67203898,	 0.165144729
	 0.280955006,	-0.201116838
	 0.152349127,	-0.034925299
	 0.0476554515,	-0.093000702
	 0.115339466,	-0.0519579537
	 0.120699744,	-0.188579175
	 0.0951629334,	-0.182506587
	 0.156757385,	-0.181667694
	-0.17009034,	-0.760154046
END
BEGIN
	-0.00242792145,	 0.910756032
	 0.538939869,	 0.624448204
	 0.674513144,	 0.17413532
	 0.299271193,	-0.1969066
	 0.154840757,	-0.0492739219
	 0.0457648001,	-0.0968542031
	 0.113071748,	-0.0610064954
	 0.107924963,	-0.194070959
	 0.0813501321,	-0.177828625
	 0.146767226,	-0.17273387
	-0.172254418,	-0.758128128
END
BEGIN
	-0.0193556053,	 0.00456575026
	-0.0379663652,	 0.0687009706
	 0.0455570902,	 0.18549125
	 0.427904921,	 0.0543518299
	-0.0599259221,	-0.589044894
	-0.61674519,	 0.00992903599
	-0.060388706,	 0.593865544
	 0.469734239,	 0.285672239
	 0.480983349,	-0.145173784
	 0.328959855,	-0.314600607
	-0.0815079346,	-0.0251625966
END
BEGIN
	-0.0193556053,	 0.00456575026
	-0.0379663652,	 0.0687009706
	 0.0455570902,	 0.18549125
	 0.427904921,	 0.0543518299
	-0.0599259221,	-0.589044894
	-0.61674519,	 0.00992903599
	-0.060388706,	 0.593865544
	 0.469734239,	 0.285672239
	 0.480983349,	-0.145173784
	 0.328959855,	-0.314600607
	-0.0815079346,	-0.0251625966
END
BEGIN
	-0.00472451949,	 0.910382176
	 0.53942984,	 0.621688072
	 0.67203898,	 0.165144729
	 0.280955006,	-0.201116838
	 0.152349127,	-0.034925299
	 0.0476554515,	-0.093000702
	 0.115339466,	-0.0519579537
	 0.120699744,	-0.188579175
	 0.0951629334,	-0.182506587
	 0.156757385,	-0.181667694
	-0.17009034,	-0.760154046
END
BEGIN
	-0.00242792145,	 0.910756032
	 0.538939869,	 0.624448204
	 0.674513144,	 0.17413532
	 0.299271193,	-0.1969066
	 0.154840757,	-0.0492739219
	 0.0457648001,	-0.0968542031
	 0.113071748,	-0.0610064954
	 0.107924963,	-0.194070959
	 0.0813501321,	-0.177828625
	 0.146767226,	-0.17273387
	-0.172254418,	-0.758128128
END
BEGIN
	-0.0193556053,	 0.00456575026
	-0.0379663652,	 0.0687009706
	 0.0455570902,	 0.18549125
	 0.427904921,	 0.0543518299
	-0.0599259221,	-0.589044894
	-0.61674519,	 0.00992903599
	-0.060388706,	 0.593865544
	 0.469734239,	 0.285672239
	 0.480983349,	-0.145173784
	 0.328959855,	-0.314600607
	-0.0815079346,	-0.0251625966
END
BEGIN
	-0.0193556053,	 0.00456575026
	-0.0379663652,	 0.0687009706
	 0.0455570902,	 0.18549125
	 0.427904921,	 0.0543518299
	-0.0599259221,	-0.589044894
	-0.61674519,	 0.00992903599
	-0.060388706,	 0.593865544
	 0.469734239,	 0.285672239
	 0.480983349,	-0.145173784
	 0.328959855,	-0.314600607
	-0.0815079346,	-0.0251625966
END
BEGIN
	-0.00472451949,	 0.910382176
	 0.53942984,	 0.621688072
	 0.67203898,	 0.165144729
	 0.280955006,	-0.201116838
	 0.152349127,	-0.034925299
	 0.0476554515,	-0.093000702
	 0.115339466,	-0.0519579537
	 0.120699744,	-0.188579175
	 0.0951629334,	-0.182506587
	 0.156757385,	-0.181667694
	-0.17009034,	-0.760154046
END
BEGIN
	 50,	 0
	 50,	 0
	 50,	 0
	 50,	 0
	 50,	 0
	 50,	 0
	 50,	 0
	 50,	 0
	 50,	 0
	 50,	 0
	 50,	 0
END
BEGIN
	 50,	 0
	 50,	 0
	 50,	 0
	 50,	 0
	 50,	 0
	 50,	 0
	 50,	 0
	 50,	 0
	 50,	 0
	 50,	 0
	 50,	 0
END
BEGIN
	 50,	 0
	 50,	 0
	 50,	 0
	 50,	 0
	 50,	 0
	 50,	 0
	 50,	 0
	 50,	 0
	 50,	 0
	 50,	 0
	 50,	 0
END
BEGIN
	 50,	 0
	 50,	 0
	 50,	 0
	 50,	 0
	 50,	 0
	 50,	 0
	 50,	 0
	 50,	 0
	 50,	 0
	 50,	 0
	 50,	 0
END
